<Qucs Dataset 0.0.22>
<indep time 133>
0.000000000000e+00
2.991450000000e-06
3.075860454460e-06
3.244681363380e-06
3.582323181220e-06
4.257606816900e-06
5.159243737480e-06
6.847037804915e-06
9.885336130947e-06
1.596193278301e-05
2.811512608714e-05
5.242151269539e-05
1.010342859119e-04
1.982598323449e-04
3.927109252109e-04
6.918559252109e-04
9.910009252109e-04
1.290145925211e-03
1.589290925211e-03
1.888435925211e-03
2.187580925211e-03
2.486725925211e-03
2.785870925211e-03
3.085015925211e-03
3.384160925211e-03
3.683305925211e-03
3.982450925211e-03
4.281595925211e-03
4.580740925211e-03
4.879885925211e-03
5.179030925211e-03
5.478175925211e-03
5.777320925211e-03
6.076465925211e-03
6.375610925211e-03
6.674755925211e-03
6.973900925211e-03
7.273045925211e-03
7.572190925211e-03
7.871335925211e-03
8.170480925211e-03
8.469625925211e-03
8.768770925211e-03
9.067915925211e-03
9.367060925211e-03
9.666205925211e-03
9.965350925211e-03
1.026449592521e-02
1.056364092521e-02
1.086278592521e-02
1.116193092521e-02
1.146107592521e-02
1.176022092521e-02
1.205936592521e-02
1.235851092521e-02
1.265765592521e-02
1.295680092521e-02
1.325594592521e-02
1.355509092521e-02
1.385423592521e-02
1.415338092521e-02
1.435877794696e-02
1.454611147014e-02
1.478382833351e-02
1.498234292635e-02
1.528148792635e-02
1.554619089895e-02
1.580158175987e-02
1.610072675987e-02
1.639987175987e-02
1.669901675987e-02
1.699816175987e-02
1.729730675987e-02
1.759645175987e-02
1.789559675987e-02
1.819474175987e-02
1.849388675987e-02
1.879303175987e-02
1.909217675987e-02
1.939132175987e-02
1.969046675987e-02
1.998961175987e-02
2.028875675987e-02
2.058790175987e-02
2.088704675987e-02
2.118619175987e-02
2.148533675987e-02
2.178448175987e-02
2.208362675987e-02
2.238277175987e-02
2.268191675987e-02
2.298106175987e-02
2.328020675987e-02
2.357935175987e-02
2.387849675987e-02
2.417764175987e-02
2.447678675987e-02
2.477593175987e-02
2.507507675987e-02
2.537422175987e-02
2.567336675987e-02
2.597251175987e-02
2.627165675987e-02
2.657080175987e-02
2.686994675987e-02
2.716909175987e-02
2.746823675987e-02
2.776738175987e-02
2.806652675987e-02
2.836567175987e-02
2.866481675987e-02
2.896396175987e-02
2.926310675987e-02
2.956225175987e-02
2.986139675987e-02
3.016054175987e-02
3.045968675987e-02
3.075883175987e-02
3.105797675987e-02
3.135712175987e-02
3.165626675987e-02
3.195541175987e-02
3.225455675987e-02
3.255370175987e-02
3.285284675987e-02
3.315199175987e-02
3.345113675987e-02
3.375028175987e-02
3.404942675987e-02
3.434857175987e-02
3.464771675987e-02
3.494686175987e-02
3.500000000000e-02
</indep>
<dep tran.i(vib) time>
-3.312071599120e-12
6.250285668309e-04
6.250111061341e-04
6.249857731565e-04
6.249655305398e-04
6.249564358219e-04
6.249571018774e-04
6.249574842402e-04
6.249571807981e-04
6.249574869460e-04
6.249572572679e-04
6.249574656848e-04
6.249572689328e-04
6.249574641826e-04
6.249572775193e-04
6.249574711928e-04
6.249572966532e-04
6.249574805152e-04
6.249573102854e-04
6.249574927096e-04
6.249573239122e-04
6.249575049087e-04
6.249573375334e-04
6.249575171134e-04
6.249573511488e-04
6.249575293236e-04
6.249573647586e-04
6.249575415392e-04
6.249573783628e-04
6.249575537603e-04
6.249573919614e-04
6.249575659868e-04
6.249574055546e-04
6.249575782185e-04
6.249574191423e-04
6.249575904556e-04
6.249574327245e-04
6.249576026979e-04
6.249574463014e-04
6.249576149454e-04
6.249574598730e-04
6.249576271981e-04
6.249574734392e-04
6.249576394558e-04
6.249574870002e-04
6.249576517187e-04
6.249575005560e-04
6.249576639866e-04
6.249575141065e-04
6.249576762595e-04
6.249575276520e-04
6.249576885374e-04
6.249575411924e-04
6.249577008202e-04
6.249575547277e-04
6.249577131078e-04
6.249575682580e-04
6.249577254003e-04
6.249575817833e-04
6.249577376976e-04
-1.401663877363e-06
1.399844499696e-06
-1.398199038556e-06
1.396854602893e-06
-1.395308793064e-06
6.249608109661e-04
6.249543805369e-04
6.249611039501e-04
6.249540881757e-04
6.249610893376e-04
6.249542174039e-04
6.249610760631e-04
6.249542590597e-04
6.249610633102e-04
6.249542990842e-04
6.249610507578e-04
6.249543388614e-04
6.249610384003e-04
6.249543784205e-04
6.249610262359e-04
6.249544177637e-04
6.249610142633e-04
6.249544568928e-04
6.249610024811e-04
6.249544958097e-04
6.249609908878e-04
6.249545345160e-04
6.249609794822e-04
6.249545730135e-04
6.249609682627e-04
6.249546113040e-04
6.249609572280e-04
6.249546493891e-04
6.249609463767e-04
6.249546872705e-04
6.249609357076e-04
6.249547249499e-04
6.249609252191e-04
6.249547624290e-04
6.249609149101e-04
6.249547997094e-04
6.249609047791e-04
6.249548367928e-04
6.249608948248e-04
6.249548736807e-04
6.249608850460e-04
6.249549103749e-04
6.249608754413e-04
6.249549468768e-04
6.249608660094e-04
6.249549831881e-04
6.249608567490e-04
-3.603848764579e-06
3.600873428233e-06
-3.598254320334e-06
6.249637452806e-04
6.249518781843e-04
6.249640731820e-04
6.249514986320e-04
6.249640733418e-04
6.249516247080e-04
6.249640405238e-04
6.249516905960e-04
6.249640083143e-04
6.249517535295e-04
6.249639764074e-04
6.249518159768e-04
6.249639448331e-04
6.249518780137e-04
6.249639135886e-04
6.249519396465e-04
6.249638826717e-04
6.249524859478e-04
</dep>
<dep tran.i(vil) time>
6.700473509369e-12
3.100681301577e-02
3.101421565645e-02
3.102479535321e-02
3.103345479510e-02
3.103740144331e-02
3.103659253020e-02
3.103616095924e-02
3.103628139498e-02
3.103619623193e-02
3.103627557655e-02
3.103620299334e-02
3.103626988520e-02
3.103619996837e-02
3.103626182435e-02
3.103618828650e-02
3.103624682936e-02
3.103617386347e-02
3.103623188896e-02
3.103615941652e-02
3.103621695113e-02
3.103614494383e-02
3.103620203969e-02
3.103613056567e-02
3.103618708269e-02
3.103611606585e-02
3.103617210407e-02
3.103610163651e-02
3.103615715189e-02
3.103608718153e-02
3.103614217805e-02
3.103607274909e-02
3.103612732664e-02
3.103605826703e-02
3.103611233356e-02
3.103604385558e-02
3.103609743873e-02
3.103602939449e-02
3.103608247429e-02
3.103601493201e-02
3.103606753615e-02
3.103600046802e-02
3.103605257627e-02
3.103598600253e-02
3.103603766663e-02
3.103597155970e-02
3.103602273536e-02
3.103595706742e-02
3.103600778225e-02
3.103594262171e-02
3.103599295136e-02
3.103592817456e-02
3.103597793067e-02
3.103591372601e-02
3.103596308025e-02
3.103589922818e-02
3.103594816000e-02
3.103588475292e-02
3.103593326591e-02
3.103587025232e-02
1.256418047102e-06
-1.255768060315e-06
1.255352257534e-06
-1.254862944278e-06
1.254489323921e-06
3.103497851206e-02
3.103798950994e-02
3.103474021293e-02
3.103716814364e-02
3.103470477995e-02
3.103711156305e-02
3.103469814823e-02
3.103708582935e-02
3.103469216991e-02
3.103706096981e-02
3.103468606899e-02
3.103703608944e-02
3.103468002684e-02
3.103701141545e-02
3.103467380363e-02
3.103698673077e-02
3.103466759153e-02
3.103696210670e-02
3.103466127117e-02
3.103693763848e-02
3.103465496286e-02
3.103691327735e-02
3.103464854690e-02
3.103688890266e-02
3.103464202372e-02
3.103686463345e-02
3.103463551372e-02
3.103684051726e-02
3.103462884931e-02
3.103681645730e-02
3.103462227081e-02
3.103679245282e-02
3.103461558661e-02
3.103676850314e-02
3.103460874908e-02
3.103674465556e-02
3.103460197452e-02
3.103672086139e-02
3.103459504744e-02
3.103669716803e-02
3.103458813610e-02
3.103667352663e-02
3.103458112090e-02
3.103664996077e-02
3.103457405023e-02
3.103662651759e-02
3.103456694844e-02
3.157015772581e-06
-3.156048416608e-06
3.155287605972e-06
3.103349405842e-02
3.103916431546e-02
3.103360739229e-02
3.103792380837e-02
3.103349922960e-02
3.103784952192e-02
3.103350022091e-02
3.103781351525e-02
3.103349989553e-02
3.103777924405e-02
3.103349961564e-02
3.103774523824e-02
3.103349928876e-02
3.103771140476e-02
3.103349882233e-02
3.103767771608e-02
3.103349828822e-02
3.103751116777e-02
</dep>
<dep tran.v(vc) time>
3.299999999251e+00
1.985448311918e-01
1.978170652165e-01
1.967637473714e-01
1.958744372966e-01
1.954911337486e-01
1.955674205674e-01
1.956087640890e-01
1.955967393032e-01
1.956057960098e-01
1.955981687768e-01
1.956052634651e-01
1.955984213346e-01
1.956051241930e-01
1.955984485523e-01
1.956050351120e-01
1.955984082500e-01
1.956049403566e-01
1.955983628542e-01
1.956048432301e-01
1.955983172534e-01
1.956047463085e-01
1.955982714490e-01
1.956046495886e-01
1.955982254426e-01
1.956045530691e-01
1.955981792359e-01
1.956044567480e-01
1.955981328304e-01
1.956043606241e-01
1.955980862277e-01
1.956042646956e-01
1.955980394293e-01
1.956041689612e-01
1.955979924370e-01
1.956040734192e-01
1.955979452520e-01
1.956039780681e-01
1.955978978761e-01
1.956038829065e-01
1.955978503107e-01
1.956037879329e-01
1.955978025573e-01
1.956036931457e-01
1.955977546174e-01
1.956035985436e-01
1.955977064926e-01
1.956035041250e-01
1.955976581842e-01
1.956034098886e-01
1.955976096936e-01
1.956033158328e-01
1.955975610226e-01
1.956032219563e-01
1.955975121723e-01
1.956031282578e-01
1.955974631442e-01
1.956030347357e-01
1.955974139398e-01
1.956029413887e-01
3.299838256092e+00
3.300089539740e+00
3.299838365451e+00
3.300089449327e+00
3.299838453114e+00
1.956913701159e-01
1.953895105671e-01
1.957138659643e-01
1.954702440647e-01
1.957158689030e-01
1.954743647194e-01
1.957149909960e-01
1.954753879046e-01
1.957140501774e-01
1.954763405032e-01
1.957131144607e-01
1.954772832185e-01
1.957121849103e-01
1.954782173379e-01
1.957112615147e-01
1.954791429614e-01
1.957103442356e-01
1.954800601651e-01
1.957094330347e-01
1.954809690237e-01
1.957085278735e-01
1.954818696111e-01
1.957076287139e-01
1.954827620010e-01
1.957067355179e-01
1.954836462658e-01
1.957058482475e-01
1.954845224775e-01
1.957049668652e-01
1.954853907074e-01
1.957040913331e-01
1.954862510263e-01
1.957032216139e-01
1.954871035039e-01
1.957023576705e-01
1.954879482096e-01
1.957014994655e-01
1.954887852120e-01
1.957006469622e-01
1.954896145791e-01
1.956998001236e-01
1.954904363782e-01
1.956989589131e-01
1.954912506759e-01
1.956981232944e-01
1.954920575384e-01
1.956972932308e-01
3.299612138244e+00
3.300243603190e+00
3.299612312935e+00
1.958038404951e-01
1.952359020858e-01
1.957909618432e-01
1.953584422640e-01
1.958002452298e-01
1.953643372915e-01
1.957986033679e-01
1.953663937663e-01
1.957970956405e-01
1.953682790905e-01
1.957955810041e-01
1.953701427097e-01
1.957940759087e-01
1.953719891399e-01
1.957925800255e-01
1.953738187234e-01
1.957910933392e-01
1.953896065074e-01
</dep>
<dep tran.v(vi) time>
0.000000000000e+00
3.300000000000e+00
3.300000000000e+00
3.300000000000e+00
3.300000000000e+00
3.300000000000e+00
3.300000000000e+00
3.300000000000e+00
3.300000000000e+00
3.300000000000e+00
3.300000000000e+00
3.300000000000e+00
3.300000000000e+00
3.300000000000e+00
3.300000000000e+00
3.300000000000e+00
3.300000000000e+00
3.300000000000e+00
3.300000000000e+00
3.300000000000e+00
3.300000000000e+00
3.300000000000e+00
3.300000000000e+00
3.300000000000e+00
3.300000000000e+00
3.300000000000e+00
3.300000000000e+00
3.300000000000e+00
3.300000000000e+00
3.300000000000e+00
3.300000000000e+00
3.300000000000e+00
3.300000000000e+00
3.300000000000e+00
3.300000000000e+00
3.300000000000e+00
3.300000000000e+00
3.300000000000e+00
3.300000000000e+00
3.300000000000e+00
3.300000000000e+00
3.300000000000e+00
3.300000000000e+00
3.300000000000e+00
3.300000000000e+00
3.300000000000e+00
3.300000000000e+00
3.300000000000e+00
3.300000000000e+00
3.300000000000e+00
3.300000000000e+00
3.300000000000e+00
3.300000000000e+00
3.300000000000e+00
3.300000000000e+00
3.300000000000e+00
3.300000000000e+00
3.300000000000e+00
3.300000000000e+00
3.300000000000e+00
0.000000000000e+00
0.000000000000e+00
0.000000000000e+00
0.000000000000e+00
0.000000000000e+00
3.300000000000e+00
3.300000000000e+00
3.300000000000e+00
3.300000000000e+00
3.300000000000e+00
3.300000000000e+00
3.300000000000e+00
3.300000000000e+00
3.300000000000e+00
3.300000000000e+00
3.300000000000e+00
3.300000000000e+00
3.300000000000e+00
3.300000000000e+00
3.300000000000e+00
3.300000000000e+00
3.300000000000e+00
3.300000000000e+00
3.300000000000e+00
3.300000000000e+00
3.300000000000e+00
3.300000000000e+00
3.300000000000e+00
3.300000000000e+00
3.300000000000e+00
3.300000000000e+00
3.300000000000e+00
3.300000000000e+00
3.300000000000e+00
3.300000000000e+00
3.300000000000e+00
3.300000000000e+00
3.300000000000e+00
3.300000000000e+00
3.300000000000e+00
3.300000000000e+00
3.300000000000e+00
3.300000000000e+00
3.300000000000e+00
3.300000000000e+00
3.300000000000e+00
3.300000000000e+00
3.300000000000e+00
3.300000000000e+00
3.300000000000e+00
3.300000000000e+00
3.300000000000e+00
0.000000000000e+00
0.000000000000e+00
0.000000000000e+00
3.300000000000e+00
3.300000000000e+00
3.300000000000e+00
3.300000000000e+00
3.300000000000e+00
3.300000000000e+00
3.300000000000e+00
3.300000000000e+00
3.300000000000e+00
3.300000000000e+00
3.300000000000e+00
3.300000000000e+00
3.300000000000e+00
3.300000000000e+00
3.300000000000e+00
3.300000000000e+00
3.300000000000e+00
3.300000000000e+00
</dep>
